
T4B3C 000:306 SEGGER J-Link V4.96d Log File (0001ms, 0273ms total)
T4B3C 000:306 DLL Compiled: Jan 29 2015 11:45:37 (0001ms, 0273ms total)
T4B3C 000:306 Logging started @ 2019-10-22 13:41 (0001ms, 0273ms total)
T4B3C 000:307 JLINK_SetWarnOutHandler(...) (0000ms, 0273ms total)
T4B3C 000:307 JLINK_OpenEx(...)
Firmware: J-Link OB-STM32F072-CortexM compiled Mar  8 2020 11:15:54
Hardware: V1.00
Feature(s): GDB, RDI, FlashBP, FlashDL, JFlash, RDDI  returns O.K. (0284ms, 0557ms total)
T4B3C 000:591 JLINK_SetErrorOutHandler(...) (0000ms, 0557ms total)
T4B3C 000:591 JLINK_ExecCommand("ProjectFile = "C:\Users\18371\Desktop\STM32Ð¡³µÑ­¼£±ÜÕÏ£¨Ô­£©\Project\MDK-ARM\JLinkSettings.ini"", ...)  returns 0x00 (0002ms, 0559ms total)
T4B3C 000:598 JLINK_ExecCommand("Device = STM32F103C8", ...)Device "STM32F103C8" selected.  returns 0x00 (0014ms, 0573ms total)
T4B3C 000:612 JLINK_ExecCommand("DisableConnectionTimeout", ...)  returns 0x01 (0000ms, 0573ms total)
T4B3C 000:612 JLINK_GetHardwareVersion()  returns 0x2710 (0001ms, 0574ms total)
T4B3C 000:613 JLINK_GetDLLVersion()  returns 49604 (0000ms, 0574ms total)
T4B3C 000:613 JLINK_GetFirmwareString(...) (0000ms, 0574ms total)
T4B3C 000:643 JLINK_GetDLLVersion()  returns 49604 (0000ms, 0574ms total)
T4B3C 000:643 JLINK_GetCompileDateTime() (0000ms, 0574ms total)
T4B3C 000:652 JLINK_GetFirmwareString(...) (0000ms, 0574ms total)
T4B3C 000:660 JLINK_GetHardwareVersion()  returns 0x2710 (0000ms, 0574ms total)
T4B3C 000:688 JLINK_TIF_Select(JLINKARM_TIF_SWD)  returns 0x00 (0001ms, 0575ms total)
T4B3C 000:689 JLINK_SetSpeed(1000) (0000ms, 0575ms total)
T4B3C 000:689 JLINK_GetId() >0x108 TIF>Found SWD-DP with ID 0x1BA01477 >0x0D TIF> >0x28 TIF> >0x0D TIF> >0x28 TIF> >0x0D TIF> >0x21 TIF> >0x0D TIF> >0x28 TIF> >0x0D TIF> >0x28 TIF> >0x0D TIF> >0x28 TIF> >0x0D TIF> >0x21 TIF> >0x0D TIF> >0x21 TIF> >0x0D TIF> >0x28 TIF> >0x0D TIF> >0x21 TIF> >0x0D TIF> >0x21 TIF> >0x108 TIF>Found SWD-DP with ID 0x1BA01477 >0x0D TIF> >0x21 TIF> >0x0D TIF> >0x28 TIF> >0x0D TIF> >0x28 TIF> >0x0D TIF> >0x21 TIF> >0x0D TIF> >0x28 TIF> >0x0D TIF> >0x21 TIF> >0x0D TIF> >0x21 TIF>
 >0x0D TIF> >0x21 TIF> >0x0D TIF> >0x21 TIF> >0x0D TIF> >0x28 TIF> >0x0D TIF> >0x28 TIF> >0x0D TIF> >0x21 TIF> >0x0D TIF> >0x28 TIF> >0x0D TIF> >0x28 TIF> >0x0D TIF> >0x28 TIF> >0x0D TIF> >0x21 TIF> >0x0D TIF> >0x21 TIF> >0x0D TIF> >0x28 TIF> >0x0D TIF> >0x21 TIF> >0x0D TIF> >0x21 TIF>Found Cortex-M3 r1p1, Little endian. -- CPU_WriteMem(4 bytes @ 0xE0002000) -- CPU_ReadMem(4 bytes @ 0xE000EDF0) -- CPU_ReadMem(4 bytes @ 0xE0002000)FPUnit: 6 code (BP) slots and 2 literal slots
 -- CPU_ReadMem(4 bytes @ 0xE000EDFC) -- CPU_ReadMem(4 bytes @ 0xE0001000) -- CPU_WriteMem(4 bytes @ 0xE0001000) -- CPU_ReadMem(4 bytes @ 0xE000ED88) -- CPU_WriteMem(4 bytes @ 0xE000ED88) -- CPU_ReadMem(4 bytes @ 0xE000ED88) -- CPU_WriteMem(4 bytes @ 0xE000ED88) -- CPU_ReadMem(4 bytes @ 0xE00FF010)TPIU fitted. -- CPU_ReadMem(4 bytes @ 0xE00FF014) -- CPU_ReadMem(4 bytes @ 0xE00FF018) >0x0D TIF> >0x21 TIF>  returns 0x1BA01477 (0057ms, 0632ms total)
T4B3C 000:746 JLINK_GetDLLVersion()  returns 49604 (0000ms, 0632ms total)
T4B3C 000:746 JLINK_CORE_GetFound()  returns 0x30000FF (0000ms, 0632ms total)
T4B3C 000:746 JLINK_GetDebugInfo(0x100) -- Value=0xE00FF003  returns 0x00 (0000ms, 0632ms total)
T4B3C 000:752 JLINK_ReadMem (0xE00FF000, 0x0020 Bytes, ...) -- CPU is running -- CPU_ReadMem(32 bytes @ 0xE00FF000) - Data: 03 F0 F0 FF 03 20 F0 FF 03 30 F0 FF 03 10 F0 FF ...  returns 0x00 (0001ms, 0633ms total)
T4B3C 000:753 JLINK_ReadMem (0xE000EFF0, 0x0010 Bytes, ...) -- CPU is running -- CPU_ReadMem(16 bytes @ 0xE000EFF0) - Data: 0D 00 00 00 E0 00 00 00 05 00 00 00 B1 00 00 00  returns 0x00 (0001ms, 0634ms total)
T4B3C 000:754 JLINK_ReadMem (0xE000EFD0, 0x0020 Bytes, ...) -- CPU is running -- CPU_ReadMem(32 bytes @ 0xE000EFD0) - Data: 04 00 00 00 00 00 00 00 00 00 00 00 00 00 00 00 ...  returns 0x00 (0001ms, 0635ms total)
T4B3C 000:755 JLINK_ReadMem (0xE0001FF0, 0x0010 Bytes, ...) -- CPU is running -- CPU_ReadMem(16 bytes @ 0xE0001FF0) - Data: 0D 00 00 00 E0 00 00 00 05 00 00 00 B1 00 00 00  returns 0x00 (0001ms, 0636ms total)
T4B3C 000:756 JLINK_ReadMem (0xE0001FD0, 0x0020 Bytes, ...) -- CPU is running -- CPU_ReadMem(32 bytes @ 0xE0001FD0) - Data: 04 00 00 00 00 00 00 00 00 00 00 00 00 00 00 00 ...  returns 0x00 (0001ms, 0637ms total)
T4B3C 000:757 JLINK_ReadMem (0xE0002FF0, 0x0010 Bytes, ...) -- CPU is running -- CPU_ReadMem(16 bytes @ 0xE0002FF0) - Data: 0D 00 00 00 E0 00 00 00 05 00 00 00 B1 00 00 00  returns 0x00 (0001ms, 0638ms total)
T4B3C 000:758 JLINK_ReadMem (0xE0002FD0, 0x0020 Bytes, ...) -- CPU is running -- CPU_ReadMem(32 bytes @ 0xE0002FD0) - Data: 04 00 00 00 00 00 00 00 00 00 00 00 00 00 00 00 ...  returns 0x00 (0001ms, 0639ms total)
T4B3C 000:759 JLINK_ReadMem (0xE0000FF0, 0x0010 Bytes, ...) -- CPU is running -- CPU_ReadMem(16 bytes @ 0xE0000FF0) - Data: 0D 00 00 00 E0 00 00 00 05 00 00 00 B1 00 00 00  returns 0x00 (0001ms, 0640ms total)
T4B3C 000:760 JLINK_ReadMem (0xE0000FD0, 0x0020 Bytes, ...) -- CPU is running -- CPU_ReadMem(32 bytes @ 0xE0000FD0) - Data: 04 00 00 00 00 00 00 00 00 00 00 00 00 00 00 00 ...  returns 0x00 (0001ms, 0641ms total)
T4B3C 000:761 JLINK_ReadMem (0xE0040FF0, 0x0010 Bytes, ...) -- CPU is running -- CPU_ReadMem(16 bytes @ 0xE0040FF0) - Data: 0D 00 00 00 90 00 00 00 05 00 00 00 B1 00 00 00  returns 0x00 (0001ms, 0642ms total)
T4B3C 000:762 JLINK_ReadMem (0xE0040FD0, 0x0020 Bytes, ...) -- CPU is running -- CPU_ReadMem(32 bytes @ 0xE0040FD0) - Data: 04 00 00 00 00 00 00 00 00 00 00 00 00 00 00 00 ...  returns 0x00 (0001ms, 0643ms total)
T4B3C 000:763 JLINK_ReadMemU32(0xE000ED00, 0x0001 Items, ...) -- CPU is running -- CPU_ReadMem(4 bytes @ 0xE000ED00) - Data: 31 C2 1F 41  returns 0x01 (0000ms, 0643ms total)
T4B3C 000:763 JLINK_SetResetType(JLINKARM_RESET_TYPE_NORMAL)  returns JLINKARM_RESET_TYPE_NORMAL (0001ms, 0644ms total)
T4B3C 000:764 JLINK_Reset() -- CPU is running -- CPU_WriteMem(4 bytes @ 0xE000EDF0) -- CPU is running -- CPU_WriteMem(4 bytes @ 0xE000EDFC) >0x35 TIF> -- CPU is running -- CPU_WriteMem(4 bytes @ 0xE000ED0C) -- CPU is running -- CPU_ReadMem(4 bytes @ 0xE000EDF0) -- CPU is running -- CPU_ReadMem(4 bytes @ 0xE000EDF0) -- CPU is running -- CPU_WriteMem(4 bytes @ 0xE000EDF0) -- CPU is running -- CPU_WriteMem(4 bytes @ 0xE000EDFC) -- CPU is running -- CPU_ReadMem(4 bytes @ 0xE000EDF0)
 -- CPU_WriteMem(4 bytes @ 0xE0002000) -- CPU_ReadMem(4 bytes @ 0xE000EDFC) -- CPU_ReadMem(4 bytes @ 0xE0001000) (0023ms, 0667ms total)
T4B3C 000:787 JLINK_Halt()  returns 0x00 (0000ms, 0667ms total)
T4B3C 000:787 JLINK_IsHalted()  returns TRUE (0000ms, 0667ms total)
T4B3C 000:787 JLINK_ReadMemU32(0xE000EDF0, 0x0001 Items, ...) -- CPU_ReadMem(4 bytes @ 0xE000EDF0) - Data: 03 00 03 00  returns 0x01 (0001ms, 0668ms total)
T4B3C 000:788 JLINK_WriteU32(0xE000EDF0, 0xA05F0003) -- CPU_WriteMem(4 bytes @ 0xE000EDF0)  returns 0x00 (0001ms, 0669ms total)
T4B3C 000:789 JLINK_WriteU32(0xE000EDFC, 0x01000000) -- CPU_WriteMem(4 bytes @ 0xE000EDFC)  returns 0x00 (0000ms, 0669ms total)
T4B3C 000:809 JLINK_GetHWStatus(...)  returns 0x00 (0000ms, 0669ms total)
T4B3C 000:826 JLINK_GetNumBPUnits(Type = 0xFFFFFF00)  returns 0x06 (0000ms, 0669ms total)
T4B3C 000:826 JLINK_GetNumBPUnits(Type = 0xF0)  returns 0x2000 (0000ms, 0669ms total)
T4B3C 000:826 JLINK_GetNumWPUnits()  returns 0x04 (0000ms, 0669ms total)
T4B3C 000:841 JLINK_GetSpeed()  returns 0x3E8 (0000ms, 0669ms total)
T4B3C 000:851 JLINK_ReadMemU32(0xE000E004, 0x0001 Items, ...) -- CPU_ReadMem(4 bytes @ 0xE000E004) - Data: 01 00 00 00  returns 0x01 (0001ms, 0670ms total)
T4B3C 000:852 JLINK_ReadMemU32(0xE000E004, 0x0001 Items, ...) -- CPU_ReadMem(4 bytes @ 0xE000E004) - Data: 01 00 00 00  returns 0x01 (0001ms, 0671ms total)
T4B3C 000:853 JLINK_WriteMem(0xE0001000, 0x001C Bytes, ...) - Data: 01 00 00 00 00 00 00 00 00 00 00 00 00 00 00 00 ... -- CPU_WriteMem(28 bytes @ 0xE0001000)  returns 0x1C (0001ms, 0672ms total)
T4B3C 000:854 JLINK_ReadMem (0xE0001000, 0x001C Bytes, ...) -- CPU_ReadMem(28 bytes @ 0xE0001000) - Data: 01 00 00 40 00 00 00 00 00 00 00 00 00 00 00 00 ...  returns 0x00 (0002ms, 0674ms total)
T4B3C 000:856 JLINK_Halt()  returns 0x00 (0000ms, 0674ms total)
T4B3C 000:856 JLINK_IsHalted()  returns TRUE (0000ms, 0674ms total)
T4B3C 000:860 JLINK_WriteMem(0x20000000, 0x0164 Bytes, ...) - Data: 00 BE 0A E0 0D 78 2D 06 68 40 08 24 40 00 00 D3 ... -- CPU_WriteMem(356 bytes @ 0x20000000)  returns 0x164 (0006ms, 0680ms total)
T4B3C 000:866 JLINK_WriteReg(R0, 0x08000000)  returns 0x00 (0000ms, 0680ms total)
T4B3C 000:866 JLINK_WriteReg(R1, 0x007A1200)  returns 0x00 (0000ms, 0680ms total)
T4B3C 000:867 JLINK_WriteReg(R2, 0x00000001)  returns 0x00 (0000ms, 0681ms total)
T4B3C 000:867 JLINK_WriteReg(R3, 0x00000000)  returns 0x00 (0000ms, 0681ms total)
T4B3C 000:867 JLINK_WriteReg(R4, 0x00000000)  returns 0x00 (0000ms, 0681ms total)
T4B3C 000:867 JLINK_WriteReg(R5, 0x00000000)  returns 0x00 (0000ms, 0681ms total)
T4B3C 000:867 JLINK_WriteReg(R6, 0x00000000)  returns 0x00 (0000ms, 0681ms total)
T4B3C 000:867 JLINK_WriteReg(R7, 0x00000000)  returns 0x00 (0000ms, 0681ms total)
T4B3C 000:867 JLINK_WriteReg(R8, 0x00000000)  returns 0x00 (0000ms, 0681ms total)
T4B3C 000:867 JLINK_WriteReg(R9, 0x20000160)  returns 0x00 (0000ms, 0681ms total)
T4B3C 000:867 JLINK_WriteReg(R10, 0x00000000)  returns 0x00 (0000ms, 0681ms total)
T4B3C 000:867 JLINK_WriteReg(R11, 0x00000000)  returns 0x00 (0000ms, 0681ms total)
T4B3C 000:867 JLINK_WriteReg(R12, 0x00000000)  returns 0x00 (0000ms, 0681ms total)
T4B3C 000:867 JLINK_WriteReg(R13 (SP), 0x20000800)  returns 0x00 (0000ms, 0681ms total)
T4B3C 000:867 JLINK_WriteReg(R14, 0x20000001)  returns 0x00 (0000ms, 0681ms total)
T4B3C 000:867 JLINK_WriteReg(R15 (PC), 0x20000038)  returns 0x00 (0000ms, 0681ms total)
T4B3C 000:867 JLINK_WriteReg(XPSR, 0x01000000)  returns 0x00 (0000ms, 0681ms total)
T4B3C 000:867 JLINK_WriteReg(MSP, 0x20000800)  returns 0x00 (0000ms, 0681ms total)
T4B3C 000:867 JLINK_WriteReg(PSP, 0x20000800)  returns 0x00 (0000ms, 0681ms total)
T4B3C 000:867 JLINK_WriteReg(CFBP, 0x00000000)  returns 0x00 (0000ms, 0681ms total)
T4B3C 000:867 JLINK_SetBPEx(Addr = 0x20000000, Type = 0xFFFFFFF2) -- CPU_ReadMem(2 bytes @ 0x20000000)  returns 0x00000001 (0001ms, 0682ms total)
T4B3C 000:868 JLINK_Go() -- CPU_WriteMem(2 bytes @ 0x20000000) -- CPU_WriteMem(4 bytes @ 0xE0002008) -- CPU_WriteMem(4 bytes @ 0xE000200C) -- CPU_WriteMem(4 bytes @ 0xE0002010) -- CPU_WriteMem(4 bytes @ 0xE0002014) -- CPU_WriteMem(4 bytes @ 0xE0002018) -- CPU_WriteMem(4 bytes @ 0xE000201C) -- CPU_WriteMem(4 bytes @ 0xE0001004) (0009ms, 0691ms total)
T4B3C 000:877 JLINK_IsHalted() -- CPU_ReadMem(2 bytes @ 0x20000000)  returns TRUE (0008ms, 0699ms total)
T4B3C 000:885 JLINK_ReadReg(R15 (PC))  returns 0x20000000 (0000ms, 0691ms total)
T4B3C 000:885 JLINK_ClrBPEx(BPHandle = 0x00000001)  returns 0x00 (0000ms, 0691ms total)
T4B3C 000:885 JLINK_ReadReg(R0)  returns 0x00000000 (0000ms, 0691ms total)
T4B3C 000:886 JLINK_WriteReg(R0, 0x08000000)  returns 0x00 (0000ms, 0691ms total)
T4B3C 000:886 JLINK_WriteReg(R1, 0x007A1200)  returns 0x00 (0000ms, 0691ms total)
T4B3C 000:886 JLINK_WriteReg(R2, 0x00000001)  returns 0x00 (0000ms, 0691ms total)
T4B3C 000:886 JLINK_WriteReg(R3, 0x00000000)  returns 0x00 (0000ms, 0691ms total)
T4B3C 000:886 JLINK_WriteReg(R4, 0x00000000)  returns 0x00 (0000ms, 0691ms total)
T4B3C 000:886 JLINK_WriteReg(R5, 0x00000000)  returns 0x00 (0000ms, 0691ms total)
T4B3C 000:886 JLINK_WriteReg(R6, 0x00000000)  returns 0x00 (0000ms, 0691ms total)
T4B3C 000:886 JLINK_WriteReg(R7, 0x00000000)  returns 0x00 (0000ms, 0691ms total)
T4B3C 000:886 JLINK_WriteReg(R8, 0x00000000)  returns 0x00 (0000ms, 0691ms total)
T4B3C 000:886 JLINK_WriteReg(R9, 0x20000160)  returns 0x00 (0000ms, 0691ms total)
T4B3C 000:886 JLINK_WriteReg(R10, 0x00000000)  returns 0x00 (0000ms, 0691ms total)
T4B3C 000:886 JLINK_WriteReg(R11, 0x00000000)  returns 0x00 (0000ms, 0691ms total)
T4B3C 000:886 JLINK_WriteReg(R12, 0x00000000)  returns 0x00 (0000ms, 0691ms total)
T4B3C 000:886 JLINK_WriteReg(R13 (SP), 0x20000800)  returns 0x00 (0000ms, 0691ms total)
T4B3C 000:886 JLINK_WriteReg(R14, 0x20000001)  returns 0x00 (0000ms, 0691ms total)
T4B3C 000:886 JLINK_WriteReg(R15 (PC), 0x2000007C)  returns 0x00 (0000ms, 0691ms total)
T4B3C 000:886 JLINK_WriteReg(XPSR, 0x01000000)  returns 0x00 (0000ms, 0691ms total)
T4B3C 000:886 JLINK_WriteReg(MSP, 0x20000800)  returns 0x00 (0000ms, 0691ms total)
T4B3C 000:886 JLINK_WriteReg(PSP, 0x20000800)  returns 0x00 (0000ms, 0691ms total)
T4B3C 000:886 JLINK_WriteReg(CFBP, 0x00000000)  returns 0x00 (0000ms, 0691ms total)
T4B3C 000:886 JLINK_SetBPEx(Addr = 0x20000000, Type = 0xFFFFFFF2)  returns 0x00000002 (0001ms, 0692ms total)
T4B3C 000:887 JLINK_Go() (0002ms, 0694ms total)
T4B3C 000:889 JLINK_IsHalted()  returns FALSE (0001ms, 0695ms total)
T4B3C 000:963 JLINK_IsHalted() -- CPU_ReadMem(2 bytes @ 0x20000000)  returns TRUE (0007ms, 0701ms total)
T4B3C 000:970 JLINK_ReadReg(R15 (PC))  returns 0x20000000 (0000ms, 0694ms total)
T4B3C 000:970 JLINK_ClrBPEx(BPHandle = 0x00000002)  returns 0x00 (0000ms, 0694ms total)
T4B3C 000:970 JLINK_ReadReg(R0)  returns 0x00000000 (0000ms, 0694ms total)
T4B3C 001:023 JLINK_WriteReg(R0, 0x00000001)  returns 0x00 (0001ms, 0695ms total)
T4B3C 001:024 JLINK_WriteReg(R1, 0x007A1200)  returns 0x00 (0000ms, 0695ms total)
T4B3C 001:024 JLINK_WriteReg(R2, 0x00000001)  returns 0x00 (0000ms, 0695ms total)
T4B3C 001:024 JLINK_WriteReg(R3, 0x00000000)  returns 0x00 (0000ms, 0695ms total)
T4B3C 001:024 JLINK_WriteReg(R4, 0x00000000)  returns 0x00 (0000ms, 0695ms total)
T4B3C 001:024 JLINK_WriteReg(R5, 0x00000000)  returns 0x00 (0000ms, 0695ms total)
T4B3C 001:024 JLINK_WriteReg(R6, 0x00000000)  returns 0x00 (0000ms, 0695ms total)
T4B3C 001:024 JLINK_WriteReg(R7, 0x00000000)  returns 0x00 (0000ms, 0695ms total)
T4B3C 001:024 JLINK_WriteReg(R8, 0x00000000)  returns 0x00 (0000ms, 0695ms total)
T4B3C 001:024 JLINK_WriteReg(R9, 0x20000160)  returns 0x00 (0000ms, 0695ms total)
T4B3C 001:024 JLINK_WriteReg(R10, 0x00000000)  returns 0x00 (0000ms, 0695ms total)
T4B3C 001:024 JLINK_WriteReg(R11, 0x00000000)  returns 0x00 (0000ms, 0695ms total)
T4B3C 001:024 JLINK_WriteReg(R12, 0x00000000)  returns 0x00 (0000ms, 0695ms total)
T4B3C 001:024 JLINK_WriteReg(R13 (SP), 0x20000800)  returns 0x00 (0000ms, 0695ms total)
T4B3C 001:024 JLINK_WriteReg(R14, 0x20000001)  returns 0x00 (0000ms, 0695ms total)
T4B3C 001:024 JLINK_WriteReg(R15 (PC), 0x2000006A)  returns 0x00 (0001ms, 0696ms total)
T4B3C 001:025 JLINK_WriteReg(XPSR, 0x01000000)  returns 0x00 (0000ms, 0696ms total)
T4B3C 001:025 JLINK_WriteReg(MSP, 0x20000800)  returns 0x00 (0000ms, 0696ms total)
T4B3C 001:025 JLINK_WriteReg(PSP, 0x20000800)  returns 0x00 (0000ms, 0696ms total)
T4B3C 001:025 JLINK_WriteReg(CFBP, 0x00000000)  returns 0x00 (0000ms, 0696ms total)
T4B3C 001:025 JLINK_SetBPEx(Addr = 0x20000000, Type = 0xFFFFFFF2)  returns 0x00000003 (0000ms, 0696ms total)
T4B3C 001:025 JLINK_Go() (0003ms, 0699ms total)
T4B3C 001:028 JLINK_IsHalted() -- CPU_ReadMem(2 bytes @ 0x20000000)  returns TRUE (0007ms, 0706ms total)
T4B3C 001:035 JLINK_ReadReg(R15 (PC))  returns 0x20000000 (0000ms, 0699ms total)
T4B3C 001:035 JLINK_ClrBPEx(BPHandle = 0x00000003)  returns 0x00 (0000ms, 0699ms total)
T4B3C 001:035 JLINK_ReadReg(R0)  returns 0x00000000 (0000ms, 0699ms total)
T4B3C 001:045 JLINK_WriteMem(0x20000000, 0x0164 Bytes, ...) - Data: 00 BE 0A E0 0D 78 2D 06 68 40 08 24 40 00 00 D3 ... -- CPU_WriteMem(356 bytes @ 0x20000000)  returns 0x164 (0005ms, 0704ms total)
T4B3C 001:050 JLINK_WriteReg(R0, 0x08000000)  returns 0x00 (0000ms, 0704ms total)
T4B3C 001:050 JLINK_WriteReg(R1, 0x007A1200)  returns 0x00 (0000ms, 0704ms total)
T4B3C 001:050 JLINK_WriteReg(R2, 0x00000002)  returns 0x00 (0000ms, 0704ms total)
T4B3C 001:050 JLINK_WriteReg(R3, 0x00000000)  returns 0x00 (0001ms, 0705ms total)
T4B3C 001:051 JLINK_WriteReg(R4, 0x00000000)  returns 0x00 (0000ms, 0705ms total)
T4B3C 001:051 JLINK_WriteReg(R5, 0x00000000)  returns 0x00 (0000ms, 0705ms total)
T4B3C 001:051 JLINK_WriteReg(R6, 0x00000000)  returns 0x00 (0000ms, 0705ms total)
T4B3C 001:051 JLINK_WriteReg(R7, 0x00000000)  returns 0x00 (0000ms, 0705ms total)
T4B3C 001:051 JLINK_WriteReg(R8, 0x00000000)  returns 0x00 (0000ms, 0705ms total)
T4B3C 001:051 JLINK_WriteReg(R9, 0x20000160)  returns 0x00 (0000ms, 0705ms total)
T4B3C 001:051 JLINK_WriteReg(R10, 0x00000000)  returns 0x00 (0000ms, 0705ms total)
T4B3C 001:051 JLINK_WriteReg(R11, 0x00000000)  returns 0x00 (0000ms, 0705ms total)
T4B3C 001:051 JLINK_WriteReg(R12, 0x00000000)  returns 0x00 (0000ms, 0705ms total)
T4B3C 001:051 JLINK_WriteReg(R13 (SP), 0x20000800)  returns 0x00 (0000ms, 0705ms total)
T4B3C 001:051 JLINK_WriteReg(R14, 0x20000001)  returns 0x00 (0000ms, 0705ms total)
T4B3C 001:051 JLINK_WriteReg(R15 (PC), 0x20000038)  returns 0x00 (0000ms, 0705ms total)
T4B3C 001:051 JLINK_WriteReg(XPSR, 0x01000000)  returns 0x00 (0000ms, 0705ms total)
T4B3C 001:051 JLINK_WriteReg(MSP, 0x20000800)  returns 0x00 (0000ms, 0705ms total)
T4B3C 001:051 JLINK_WriteReg(PSP, 0x20000800)  returns 0x00 (0000ms, 0705ms total)
T4B3C 001:051 JLINK_WriteReg(CFBP, 0x00000000)  returns 0x00 (0000ms, 0705ms total)
T4B3C 001:051 JLINK_SetBPEx(Addr = 0x20000000, Type = 0xFFFFFFF2) -- CPU_ReadMem(2 bytes @ 0x20000000)  returns 0x00000004 (0001ms, 0706ms total)
T4B3C 001:052 JLINK_Go() -- CPU_WriteMem(2 bytes @ 0x20000000) (0005ms, 0711ms total)
T4B3C 001:057 JLINK_IsHalted() -- CPU_ReadMem(2 bytes @ 0x20000000)  returns TRUE (0007ms, 0718ms total)
T4B3C 001:064 JLINK_ReadReg(R15 (PC))  returns 0x20000000 (0000ms, 0711ms total)
T4B3C 001:064 JLINK_ClrBPEx(BPHandle = 0x00000004)  returns 0x00 (0000ms, 0711ms total)
T4B3C 001:064 JLINK_ReadReg(R0)  returns 0x00000000 (0000ms, 0711ms total)
T4B3C 001:064 JLINK_WriteMem(0x20000164, 0x0400 Bytes, ...) - Data: 28 20 00 20 C9 01 00 08 09 1F 00 08 0B 1F 00 08 ... -- CPU_WriteMem(1024 bytes @ 0x20000164)  returns 0x400 (0016ms, 0727ms total)
T4B3C 001:080 JLINK_WriteReg(R0, 0x08000000)  returns 0x00 (0000ms, 0727ms total)
T4B3C 001:080 JLINK_WriteReg(R1, 0x00000400)  returns 0x00 (0000ms, 0727ms total)
T4B3C 001:080 JLINK_WriteReg(R2, 0x20000164)  returns 0x00 (0000ms, 0727ms total)
T4B3C 001:080 JLINK_WriteReg(R3, 0x00000000)  returns 0x00 (0000ms, 0727ms total)
T4B3C 001:080 JLINK_WriteReg(R4, 0x00000000)  returns 0x00 (0000ms, 0727ms total)
T4B3C 001:080 JLINK_WriteReg(R5, 0x00000000)  returns 0x00 (0000ms, 0727ms total)
T4B3C 001:081 JLINK_WriteReg(R6, 0x00000000)  returns 0x00 (0000ms, 0727ms total)
T4B3C 001:081 JLINK_WriteReg(R7, 0x00000000)  returns 0x00 (0000ms, 0727ms total)
T4B3C 001:081 JLINK_WriteReg(R8, 0x00000000)  returns 0x00 (0000ms, 0727ms total)
T4B3C 001:081 JLINK_WriteReg(R9, 0x20000160)  returns 0x00 (0000ms, 0727ms total)
T4B3C 001:081 JLINK_WriteReg(R10, 0x00000000)  returns 0x00 (0000ms, 0727ms total)
T4B3C 001:081 JLINK_WriteReg(R11, 0x00000000)  returns 0x00 (0000ms, 0727ms total)
T4B3C 001:081 JLINK_WriteReg(R12, 0x00000000)  returns 0x00 (0000ms, 0727ms total)
T4B3C 001:081 JLINK_WriteReg(R13 (SP), 0x20000800)  returns 0x00 (0000ms, 0727ms total)
T4B3C 001:081 JLINK_WriteReg(R14, 0x20000001)  returns 0x00 (0000ms, 0727ms total)
T4B3C 001:081 JLINK_WriteReg(R15 (PC), 0x200000F4)  returns 0x00 (0000ms, 0727ms total)
T4B3C 001:081 JLINK_WriteReg(XPSR, 0x01000000)  returns 0x00 (0000ms, 0727ms total)
T4B3C 001:081 JLINK_WriteReg(MSP, 0x20000800)  returns 0x00 (0000ms, 0727ms total)
T4B3C 001:081 JLINK_WriteReg(PSP, 0x20000800)  returns 0x00 (0000ms, 0727ms total)
T4B3C 001:081 JLINK_WriteReg(CFBP, 0x00000000)  returns 0x00 (0000ms, 0727ms total)
T4B3C 001:081 JLINK_SetBPEx(Addr = 0x20000000, Type = 0xFFFFFFF2)  returns 0x00000005 (0000ms, 0727ms total)
T4B3C 001:081 JLINK_Go() (0003ms, 0730ms total)
T4B3C 001:084 JLINK_IsHalted()  returns FALSE (0001ms, 0731ms total)
T4B3C 001:100 JLINK_IsHalted()  returns FALSE (0000ms, 0730ms total)
T4B3C 001:102 JLINK_IsHalted()  returns FALSE (0000ms, 0730ms total)
T4B3C 001:104 JLINK_IsHalted()  returns FALSE (0001ms, 0731ms total)
T4B3C 001:109 JLINK_IsHalted()  returns FALSE (0000ms, 0730ms total)
T4B3C 001:111 JLINK_IsHalted()  returns FALSE (0000ms, 0730ms total)
T4B3C 001:113 JLINK_IsHalted()  returns FALSE (0000ms, 0730ms total)
T4B3C 001:115 JLINK_IsHalted()  returns FALSE (0001ms, 0731ms total)
T4B3C 001:118 JLINK_IsHalted() -- CPU_ReadMem(2 bytes @ 0x20000000)  returns TRUE (0008ms, 0738ms total)
T4B3C 001:126 JLINK_ReadReg(R15 (PC))  returns 0x20000000 (0000ms, 0730ms total)
T4B3C 001:126 JLINK_ClrBPEx(BPHandle = 0x00000005)  returns 0x00 (0000ms, 0730ms total)
T4B3C 001:126 JLINK_ReadReg(R0)  returns 0x00000000 (0000ms, 0730ms total)
T4B3C 001:127 JLINK_WriteMem(0x20000164, 0x0400 Bytes, ...) - Data: 03 F7 BC 43 05 FA 03 FC 4C EA 04 04 91 F8 03 C0 ... -- CPU_WriteMem(1024 bytes @ 0x20000164)  returns 0x400 (0016ms, 0746ms total)
T4B3C 001:143 JLINK_WriteReg(R0, 0x08000400)  returns 0x00 (0000ms, 0746ms total)
T4B3C 001:143 JLINK_WriteReg(R1, 0x00000400)  returns 0x00 (0000ms, 0746ms total)
T4B3C 001:143 JLINK_WriteReg(R2, 0x20000164)  returns 0x00 (0000ms, 0746ms total)
T4B3C 001:143 JLINK_WriteReg(R3, 0x00000000)  returns 0x00 (0000ms, 0746ms total)
T4B3C 001:143 JLINK_WriteReg(R4, 0x00000000)  returns 0x00 (0000ms, 0746ms total)
T4B3C 001:143 JLINK_WriteReg(R5, 0x00000000)  returns 0x00 (0000ms, 0746ms total)
T4B3C 001:143 JLINK_WriteReg(R6, 0x00000000)  returns 0x00 (0000ms, 0746ms total)
T4B3C 001:143 JLINK_WriteReg(R7, 0x00000000)  returns 0x00 (0000ms, 0746ms total)
T4B3C 001:143 JLINK_WriteReg(R8, 0x00000000)  returns 0x00 (0000ms, 0746ms total)
T4B3C 001:143 JLINK_WriteReg(R9, 0x20000160)  returns 0x00 (0000ms, 0746ms total)
T4B3C 001:143 JLINK_WriteReg(R10, 0x00000000)  returns 0x00 (0000ms, 0746ms total)
T4B3C 001:143 JLINK_WriteReg(R11, 0x00000000)  returns 0x00 (0000ms, 0746ms total)
T4B3C 001:143 JLINK_WriteReg(R12, 0x00000000)  returns 0x00 (0000ms, 0746ms total)
T4B3C 001:143 JLINK_WriteReg(R13 (SP), 0x20000800)  returns 0x00 (0000ms, 0746ms total)
T4B3C 001:143 JLINK_WriteReg(R14, 0x20000001)  returns 0x00 (0000ms, 0746ms total)
T4B3C 001:143 JLINK_WriteReg(R15 (PC), 0x200000F4)  returns 0x00 (0000ms, 0746ms total)
T4B3C 001:143 JLINK_WriteReg(XPSR, 0x01000000)  returns 0x00 (0001ms, 0747ms total)
T4B3C 001:144 JLINK_WriteReg(MSP, 0x20000800)  returns 0x00 (0000ms, 0747ms total)
T4B3C 001:144 JLINK_WriteReg(PSP, 0x20000800)  returns 0x00 (0000ms, 0747ms total)
T4B3C 001:144 JLINK_WriteReg(CFBP, 0x00000000)  returns 0x00 (0000ms, 0747ms total)
T4B3C 001:144 JLINK_SetBPEx(Addr = 0x20000000, Type = 0xFFFFFFF2)  returns 0x00000006 (0000ms, 0747ms total)
T4B3C 001:144 JLINK_Go() (0003ms, 0750ms total)
T4B3C 001:147 JLINK_IsHalted()  returns FALSE (0001ms, 0751ms total)
T4B3C 001:151 JLINK_IsHalted()  returns FALSE (0000ms, 0750ms total)
T4B3C 001:153 JLINK_IsHalted()  returns FALSE (0001ms, 0751ms total)
T4B3C 001:156 JLINK_IsHalted()  returns FALSE (0001ms, 0751ms total)
T4B3C 001:159 JLINK_IsHalted()  returns FALSE (0000ms, 0750ms total)
T4B3C 001:161 JLINK_IsHalted()  returns FALSE (0000ms, 0750ms total)
T4B3C 001:163 JLINK_IsHalted()  returns FALSE (0000ms, 0750ms total)
T4B3C 001:165 JLINK_IsHalted()  returns FALSE (0001ms, 0751ms total)
T4B3C 001:168 JLINK_IsHalted()  returns FALSE (0000ms, 0750ms total)
T4B3C 001:170 JLINK_IsHalted()  returns FALSE (0000ms, 0750ms total)
T4B3C 001:173 JLINK_IsHalted()  returns FALSE (0000ms, 0750ms total)
T4B3C 001:175 JLINK_IsHalted()  returns FALSE (0000ms, 0750ms total)
T4B3C 001:177 JLINK_IsHalted()  returns FALSE (0000ms, 0750ms total)
T4B3C 001:179 JLINK_IsHalted() -- CPU_ReadMem(2 bytes @ 0x20000000)  returns TRUE (0007ms, 0757ms total)
T4B3C 001:186 JLINK_ReadReg(R15 (PC))  returns 0x20000000 (0000ms, 0750ms total)
T4B3C 001:186 JLINK_ClrBPEx(BPHandle = 0x00000006)  returns 0x00 (0000ms, 0750ms total)
T4B3C 001:186 JLINK_ReadReg(R0)  returns 0x00000000 (0000ms, 0750ms total)
T4B3C 001:187 JLINK_WriteMem(0x20000164, 0x0400 Bytes, ...) - Data: 82 F8 20 10 01 28 02 D0 04 28 0A D1 04 E0 01 21 ... -- CPU_WriteMem(1024 bytes @ 0x20000164)  returns 0x400 (0017ms, 0767ms total)
T4B3C 001:204 JLINK_WriteReg(R0, 0x08000800)  returns 0x00 (0000ms, 0767ms total)
T4B3C 001:204 JLINK_WriteReg(R1, 0x00000400)  returns 0x00 (0000ms, 0767ms total)
T4B3C 001:204 JLINK_WriteReg(R2, 0x20000164)  returns 0x00 (0000ms, 0767ms total)
T4B3C 001:204 JLINK_WriteReg(R3, 0x00000000)  returns 0x00 (0000ms, 0767ms total)
T4B3C 001:204 JLINK_WriteReg(R4, 0x00000000)  returns 0x00 (0000ms, 0767ms total)
T4B3C 001:204 JLINK_WriteReg(R5, 0x00000000)  returns 0x00 (0000ms, 0767ms total)
T4B3C 001:204 JLINK_WriteReg(R6, 0x00000000)  returns 0x00 (0000ms, 0767ms total)
T4B3C 001:204 JLINK_WriteReg(R7, 0x00000000)  returns 0x00 (0000ms, 0767ms total)
T4B3C 001:204 JLINK_WriteReg(R8, 0x00000000)  returns 0x00 (0000ms, 0767ms total)
T4B3C 001:204 JLINK_WriteReg(R9, 0x20000160)  returns 0x00 (0000ms, 0767ms total)
T4B3C 001:204 JLINK_WriteReg(R10, 0x00000000)  returns 0x00 (0000ms, 0767ms total)
T4B3C 001:204 JLINK_WriteReg(R11, 0x00000000)  returns 0x00 (0000ms, 0767ms total)
T4B3C 001:204 JLINK_WriteReg(R12, 0x00000000)  returns 0x00 (0000ms, 0767ms total)
T4B3C 001:204 JLINK_WriteReg(R13 (SP), 0x20000800)  returns 0x00 (0000ms, 0767ms total)
T4B3C 001:204 JLINK_WriteReg(R14, 0x20000001)  returns 0x00 (0000ms, 0767ms total)
T4B3C 001:204 JLINK_WriteReg(R15 (PC), 0x200000F4)  returns 0x00 (0000ms, 0767ms total)
T4B3C 001:204 JLINK_WriteReg(XPSR, 0x01000000)  returns 0x00 (0000ms, 0767ms total)
T4B3C 001:204 JLINK_WriteReg(MSP, 0x20000800)  returns 0x00 (0000ms, 0767ms total)
T4B3C 001:204 JLINK_WriteReg(PSP, 0x20000800)  returns 0x00 (0000ms, 0767ms total)
T4B3C 001:204 JLINK_WriteReg(CFBP, 0x00000000)  returns 0x00 (0000ms, 0767ms total)
T4B3C 001:204 JLINK_SetBPEx(Addr = 0x20000000, Type = 0xFFFFFFF2)  returns 0x00000007 (0000ms, 0767ms total)
T4B3C 001:205 JLINK_Go() (0003ms, 0771ms total)
T4B3C 001:208 JLINK_IsHalted()  returns FALSE (0001ms, 0772ms total)
T4B3C 001:212 JLINK_IsHalted()  returns FALSE (0001ms, 0772ms total)
T4B3C 001:214 JLINK_IsHalted()  returns FALSE (0000ms, 0771ms total)
T4B3C 001:216 JLINK_IsHalted()  returns FALSE (0001ms, 0772ms total)
T4B3C 001:219 JLINK_IsHalted()  returns FALSE (0000ms, 0771ms total)
T4B3C 001:221 JLINK_IsHalted()  returns FALSE (0000ms, 0771ms total)
T4B3C 001:225 JLINK_IsHalted()  returns FALSE (0000ms, 0771ms total)
T4B3C 001:227 JLINK_IsHalted()  returns FALSE (0000ms, 0771ms total)
T4B3C 001:229 JLINK_IsHalted()  returns FALSE (0000ms, 0771ms total)
T4B3C 001:231 JLINK_IsHalted()  returns FALSE (0000ms, 0771ms total)
T4B3C 001:233 JLINK_IsHalted()  returns FALSE (0000ms, 0771ms total)
T4B3C 001:235 JLINK_IsHalted()  returns FALSE (0000ms, 0771ms total)
T4B3C 001:237 JLINK_IsHalted()  returns FALSE (0000ms, 0771ms total)
T4B3C 001:239 JLINK_IsHalted() -- CPU_ReadMem(2 bytes @ 0x20000000)  returns TRUE (0007ms, 0778ms total)
T4B3C 001:246 JLINK_ReadReg(R15 (PC))  returns 0x20000000 (0001ms, 0772ms total)
T4B3C 001:247 JLINK_ClrBPEx(BPHandle = 0x00000007)  returns 0x00 (0000ms, 0772ms total)
T4B3C 001:247 JLINK_ReadReg(R0)  returns 0x00000000 (0000ms, 0772ms total)
T4B3C 001:249 JLINK_WriteMem(0x20000164, 0x0400 Bytes, ...) - Data: 01 23 83 82 70 47 70 B5 00 24 00 22 00 23 05 8C ... -- CPU_WriteMem(1024 bytes @ 0x20000164)  returns 0x400 (0016ms, 0788ms total)
T4B3C 001:265 JLINK_WriteReg(R0, 0x08000C00)  returns 0x00 (0000ms, 0788ms total)
T4B3C 001:265 JLINK_WriteReg(R1, 0x00000400)  returns 0x00 (0000ms, 0788ms total)
T4B3C 001:265 JLINK_WriteReg(R2, 0x20000164)  returns 0x00 (0000ms, 0788ms total)
T4B3C 001:265 JLINK_WriteReg(R3, 0x00000000)  returns 0x00 (0000ms, 0788ms total)
T4B3C 001:265 JLINK_WriteReg(R4, 0x00000000)  returns 0x00 (0000ms, 0788ms total)
T4B3C 001:265 JLINK_WriteReg(R5, 0x00000000)  returns 0x00 (0000ms, 0788ms total)
T4B3C 001:265 JLINK_WriteReg(R6, 0x00000000)  returns 0x00 (0000ms, 0788ms total)
T4B3C 001:265 JLINK_WriteReg(R7, 0x00000000)  returns 0x00 (0000ms, 0788ms total)
T4B3C 001:265 JLINK_WriteReg(R8, 0x00000000)  returns 0x00 (0000ms, 0788ms total)
T4B3C 001:265 JLINK_WriteReg(R9, 0x20000160)  returns 0x00 (0000ms, 0788ms total)
T4B3C 001:265 JLINK_WriteReg(R10, 0x00000000)  returns 0x00 (0000ms, 0788ms total)
T4B3C 001:265 JLINK_WriteReg(R11, 0x00000000)  returns 0x00 (0000ms, 0788ms total)
T4B3C 001:265 JLINK_WriteReg(R12, 0x00000000)  returns 0x00 (0000ms, 0788ms total)
T4B3C 001:265 JLINK_WriteReg(R13 (SP), 0x20000800)  returns 0x00 (0001ms, 0789ms total)
T4B3C 001:266 JLINK_WriteReg(R14, 0x20000001)  returns 0x00 (0000ms, 0789ms total)
T4B3C 001:266 JLINK_WriteReg(R15 (PC), 0x200000F4)  returns 0x00 (0000ms, 0789ms total)
T4B3C 001:266 JLINK_WriteReg(XPSR, 0x01000000)  returns 0x00 (0000ms, 0789ms total)
T4B3C 001:266 JLINK_WriteReg(MSP, 0x20000800)  returns 0x00 (0000ms, 0789ms total)
T4B3C 001:266 JLINK_WriteReg(PSP, 0x20000800)  returns 0x00 (0000ms, 0789ms total)
T4B3C 001:266 JLINK_WriteReg(CFBP, 0x00000000)  returns 0x00 (0000ms, 0789ms total)
T4B3C 001:266 JLINK_SetBPEx(Addr = 0x20000000, Type = 0xFFFFFFF2)  returns 0x00000008 (0000ms, 0789ms total)
T4B3C 001:266 JLINK_Go() (0004ms, 0793ms total)
T4B3C 001:270 JLINK_IsHalted()  returns FALSE (0001ms, 0794ms total)
T4B3C 001:273 JLINK_IsHalted()  returns FALSE (0001ms, 0794ms total)
T4B3C 001:276 JLINK_IsHalted()  returns FALSE (0001ms, 0794ms total)
T4B3C 001:279 JLINK_IsHalted()  returns FALSE (0001ms, 0794ms total)
T4B3C 001:282 JLINK_IsHalted()  returns FALSE (0001ms, 0794ms total)
T4B3C 001:285 JLINK_IsHalted()  returns FALSE (0001ms, 0794ms total)
T4B3C 001:288 JLINK_IsHalted()  returns FALSE (0000ms, 0793ms total)
T4B3C 001:290 JLINK_IsHalted()  returns FALSE (0001ms, 0794ms total)
T4B3C 001:293 JLINK_IsHalted()  returns FALSE (0001ms, 0794ms total)
T4B3C 001:296 JLINK_IsHalted()  returns FALSE (0001ms, 0794ms total)
T4B3C 001:299 JLINK_IsHalted()  returns FALSE (0000ms, 0793ms total)
T4B3C 001:301 JLINK_IsHalted() -- CPU_ReadMem(2 bytes @ 0x20000000)  returns TRUE (0007ms, 0800ms total)
T4B3C 001:308 JLINK_ReadReg(R15 (PC))  returns 0x20000000 (0000ms, 0793ms total)
T4B3C 001:308 JLINK_ClrBPEx(BPHandle = 0x00000008)  returns 0x00 (0000ms, 0793ms total)
T4B3C 001:308 JLINK_ReadReg(R0)  returns 0x00000000 (0000ms, 0793ms total)
T4B3C 001:309 JLINK_WriteMem(0x20000164, 0x0400 Bytes, ...) - Data: 08 D0 8D 4F B8 42 05 D0 8C 4F B8 42 02 D0 8C 4F ... -- CPU_WriteMem(1024 bytes @ 0x20000164)  returns 0x400 (0016ms, 0809ms total)
T4B3C 001:325 JLINK_WriteReg(R0, 0x08001000)  returns 0x00 (0000ms, 0809ms total)
T4B3C 001:325 JLINK_WriteReg(R1, 0x00000400)  returns 0x00 (0000ms, 0809ms total)
T4B3C 001:325 JLINK_WriteReg(R2, 0x20000164)  returns 0x00 (0000ms, 0809ms total)
T4B3C 001:325 JLINK_WriteReg(R3, 0x00000000)  returns 0x00 (0000ms, 0809ms total)
T4B3C 001:325 JLINK_WriteReg(R4, 0x00000000)  returns 0x00 (0000ms, 0809ms total)
T4B3C 001:325 JLINK_WriteReg(R5, 0x00000000)  returns 0x00 (0000ms, 0809ms total)
T4B3C 001:325 JLINK_WriteReg(R6, 0x00000000)  returns 0x00 (0001ms, 0810ms total)
T4B3C 001:326 JLINK_WriteReg(R7, 0x00000000)  returns 0x00 (0000ms, 0810ms total)
T4B3C 001:326 JLINK_WriteReg(R8, 0x00000000)  returns 0x00 (0000ms, 0810ms total)
T4B3C 001:326 JLINK_WriteReg(R9, 0x20000160)  returns 0x00 (0000ms, 0810ms total)
T4B3C 001:326 JLINK_WriteReg(R10, 0x00000000)  returns 0x00 (0000ms, 0810ms total)
T4B3C 001:326 JLINK_WriteReg(R11, 0x00000000)  returns 0x00 (0000ms, 0810ms total)
T4B3C 001:326 JLINK_WriteReg(R12, 0x00000000)  returns 0x00 (0000ms, 0810ms total)
T4B3C 001:326 JLINK_WriteReg(R13 (SP), 0x20000800)  returns 0x00 (0000ms, 0810ms total)
T4B3C 001:326 JLINK_WriteReg(R14, 0x20000001)  returns 0x00 (0000ms, 0810ms total)
T4B3C 001:326 JLINK_WriteReg(R15 (PC), 0x200000F4)  returns 0x00 (0000ms, 0810ms total)
T4B3C 001:326 JLINK_WriteReg(XPSR, 0x01000000)  returns 0x00 (0000ms, 0810ms total)
T4B3C 001:326 JLINK_WriteReg(MSP, 0x20000800)  returns 0x00 (0000ms, 0810ms total)
T4B3C 001:326 JLINK_WriteReg(PSP, 0x20000800)  returns 0x00 (0000ms, 0810ms total)
T4B3C 001:326 JLINK_WriteReg(CFBP, 0x00000000)  returns 0x00 (0000ms, 0810ms total)
T4B3C 001:326 JLINK_SetBPEx(Addr = 0x20000000, Type = 0xFFFFFFF2)  returns 0x00000009 (0000ms, 0810ms total)
T4B3C 001:326 JLINK_Go() (0003ms, 0813ms total)
T4B3C 001:330 JLINK_IsHalted()  returns FALSE (0000ms, 0814ms total)
T4B3C 001:334 JLINK_IsHalted()  returns FALSE (0000ms, 0814ms total)
T4B3C 001:336 JLINK_IsHalted()  returns FALSE (0001ms, 0815ms total)
T4B3C 001:339 JLINK_IsHalted()  returns FALSE (0001ms, 0815ms total)
T4B3C 001:342 JLINK_IsHalted()  returns FALSE (0000ms, 0814ms total)
T4B3C 001:344 JLINK_IsHalted()  returns FALSE (0000ms, 0814ms total)
T4B3C 001:346 JLINK_IsHalted()  returns FALSE (0000ms, 0814ms total)
T4B3C 001:352 JLINK_IsHalted()  returns FALSE (0000ms, 0814ms total)
T4B3C 001:354 JLINK_IsHalted()  returns FALSE (0000ms, 0814ms total)
T4B3C 001:356 JLINK_IsHalted()  returns FALSE (0000ms, 0814ms total)
T4B3C 001:358 JLINK_IsHalted()  returns FALSE (0000ms, 0814ms total)
T4B3C 001:360 JLINK_IsHalted()  returns FALSE (0000ms, 0814ms total)
T4B3C 001:362 JLINK_IsHalted() -- CPU_ReadMem(2 bytes @ 0x20000000)  returns TRUE (0008ms, 0822ms total)
T4B3C 001:370 JLINK_ReadReg(R15 (PC))  returns 0x20000000 (0000ms, 0814ms total)
T4B3C 001:370 JLINK_ClrBPEx(BPHandle = 0x00000009)  returns 0x00 (0000ms, 0814ms total)
T4B3C 001:370 JLINK_ReadReg(R0)  returns 0x00000000 (0000ms, 0814ms total)
T4B3C 001:371 JLINK_WriteMem(0x20000164, 0x0400 Bytes, ...) - Data: 00 21 01 8B 48 F6 FF 73 19 40 4F F6 FF 73 03 EA ... -- CPU_WriteMem(1024 bytes @ 0x20000164)  returns 0x400 (0016ms, 0830ms total)
T4B3C 001:387 JLINK_WriteReg(R0, 0x08001400)  returns 0x00 (0000ms, 0830ms total)
T4B3C 001:387 JLINK_WriteReg(R1, 0x00000400)  returns 0x00 (0000ms, 0830ms total)
T4B3C 001:387 JLINK_WriteReg(R2, 0x20000164)  returns 0x00 (0000ms, 0830ms total)
T4B3C 001:387 JLINK_WriteReg(R3, 0x00000000)  returns 0x00 (0000ms, 0830ms total)
T4B3C 001:388 JLINK_WriteReg(R4, 0x00000000)  returns 0x00 (0000ms, 0830ms total)
T4B3C 001:388 JLINK_WriteReg(R5, 0x00000000)  returns 0x00 (0000ms, 0830ms total)
T4B3C 001:388 JLINK_WriteReg(R6, 0x00000000)  returns 0x00 (0000ms, 0830ms total)
T4B3C 001:388 JLINK_WriteReg(R7, 0x00000000)  returns 0x00 (0000ms, 0830ms total)
T4B3C 001:388 JLINK_WriteReg(R8, 0x00000000)  returns 0x00 (0000ms, 0830ms total)
T4B3C 001:388 JLINK_WriteReg(R9, 0x20000160)  returns 0x00 (0000ms, 0830ms total)
T4B3C 001:388 JLINK_WriteReg(R10, 0x00000000)  returns 0x00 (0000ms, 0830ms total)
T4B3C 001:388 JLINK_WriteReg(R11, 0x00000000)  returns 0x00 (0000ms, 0830ms total)
T4B3C 001:388 JLINK_WriteReg(R12, 0x00000000)  returns 0x00 (0001ms, 0831ms total)
T4B3C 001:389 JLINK_WriteReg(R13 (SP), 0x20000800)  returns 0x00 (0000ms, 0831ms total)
T4B3C 001:389 JLINK_WriteReg(R14, 0x20000001)  returns 0x00 (0000ms, 0831ms total)
T4B3C 001:389 JLINK_WriteReg(R15 (PC), 0x200000F4)  returns 0x00 (0000ms, 0831ms total)
T4B3C 001:389 JLINK_WriteReg(XPSR, 0x01000000)  returns 0x00 (0000ms, 0831ms total)
T4B3C 001:389 JLINK_WriteReg(MSP, 0x20000800)  returns 0x00 (0000ms, 0831ms total)
T4B3C 001:389 JLINK_WriteReg(PSP, 0x20000800)  returns 0x00 (0000ms, 0831ms total)
T4B3C 001:389 JLINK_WriteReg(CFBP, 0x00000000)  returns 0x00 (0000ms, 0831ms total)
T4B3C 001:389 JLINK_SetBPEx(Addr = 0x20000000, Type = 0xFFFFFFF2)  returns 0x0000000A (0001ms, 0832ms total)
T4B3C 001:390 JLINK_Go() (0003ms, 0835ms total)
T4B3C 001:393 JLINK_IsHalted()  returns FALSE (0001ms, 0836ms total)
T4B3C 001:396 JLINK_IsHalted()  returns FALSE (0000ms, 0835ms total)
T4B3C 001:399 JLINK_IsHalted()  returns FALSE (0000ms, 0835ms total)
T4B3C 001:401 JLINK_IsHalted()  returns FALSE (0000ms, 0835ms total)
T4B3C 001:403 JLINK_IsHalted()  returns FALSE (0000ms, 0835ms total)
T4B3C 001:405 JLINK_IsHalted()  returns FALSE (0000ms, 0835ms total)
T4B3C 001:407 JLINK_IsHalted()  returns FALSE (0000ms, 0835ms total)
T4B3C 001:409 JLINK_IsHalted()  returns FALSE (0000ms, 0835ms total)
T4B3C 001:411 JLINK_IsHalted()  returns FALSE (0001ms, 0836ms total)
T4B3C 001:414 JLINK_IsHalted()  returns FALSE (0001ms, 0836ms total)
T4B3C 001:417 JLINK_IsHalted()  returns FALSE (0000ms, 0835ms total)
T4B3C 001:419 JLINK_IsHalted()  returns FALSE (0000ms, 0835ms total)
T4B3C 001:421 JLINK_IsHalted()  returns FALSE (0000ms, 0835ms total)
T4B3C 001:424 JLINK_IsHalted() -- CPU_ReadMem(2 bytes @ 0x20000000)  returns TRUE (0007ms, 0842ms total)
T4B3C 001:431 JLINK_ReadReg(R15 (PC))  returns 0x20000000 (0000ms, 0835ms total)
T4B3C 001:431 JLINK_ClrBPEx(BPHandle = 0x0000000A)  returns 0x00 (0000ms, 0835ms total)
T4B3C 001:431 JLINK_ReadReg(R0)  returns 0x00000000 (0000ms, 0835ms total)
T4B3C 001:431 JLINK_WriteMem(0x20000164, 0x0400 Bytes, ...) - Data: 10 B5 04 46 FB 48 84 42 09 D1 01 21 88 03 FF F7 ... -- CPU_WriteMem(1024 bytes @ 0x20000164)  returns 0x400 (0017ms, 0852ms total)
T4B3C 001:448 JLINK_WriteReg(R0, 0x08001800)  returns 0x00 (0000ms, 0852ms total)
T4B3C 001:448 JLINK_WriteReg(R1, 0x00000400)  returns 0x00 (0000ms, 0852ms total)
T4B3C 001:448 JLINK_WriteReg(R2, 0x20000164)  returns 0x00 (0000ms, 0852ms total)
T4B3C 001:448 JLINK_WriteReg(R3, 0x00000000)  returns 0x00 (0000ms, 0852ms total)
T4B3C 001:448 JLINK_WriteReg(R4, 0x00000000)  returns 0x00 (0000ms, 0852ms total)
T4B3C 001:448 JLINK_WriteReg(R5, 0x00000000)  returns 0x00 (0000ms, 0852ms total)
T4B3C 001:448 JLINK_WriteReg(R6, 0x00000000)  returns 0x00 (0000ms, 0852ms total)
T4B3C 001:448 JLINK_WriteReg(R7, 0x00000000)  returns 0x00 (0000ms, 0852ms total)
T4B3C 001:448 JLINK_WriteReg(R8, 0x00000000)  returns 0x00 (0000ms, 0852ms total)
T4B3C 001:448 JLINK_WriteReg(R9, 0x20000160)  returns 0x00 (0000ms, 0852ms total)
T4B3C 001:448 JLINK_WriteReg(R10, 0x00000000)  returns 0x00 (0000ms, 0852ms total)
T4B3C 001:448 JLINK_WriteReg(R11, 0x00000000)  returns 0x00 (0000ms, 0852ms total)
T4B3C 001:448 JLINK_WriteReg(R12, 0x00000000)  returns 0x00 (0000ms, 0852ms total)
T4B3C 001:448 JLINK_WriteReg(R13 (SP), 0x20000800)  returns 0x00 (0000ms, 0852ms total)
T4B3C 001:448 JLINK_WriteReg(R14, 0x20000001)  returns 0x00 (0000ms, 0852ms total)
T4B3C 001:448 JLINK_WriteReg(R15 (PC), 0x200000F4)  returns 0x00 (0000ms, 0852ms total)
T4B3C 001:448 JLINK_WriteReg(XPSR, 0x01000000)  returns 0x00 (0000ms, 0852ms total)
T4B3C 001:448 JLINK_WriteReg(MSP, 0x20000800)  returns 0x00 (0000ms, 0852ms total)
T4B3C 001:448 JLINK_WriteReg(PSP, 0x20000800)  returns 0x00 (0000ms, 0852ms total)
T4B3C 001:449 JLINK_WriteReg(CFBP, 0x00000000)  returns 0x00 (0000ms, 0853ms total)
T4B3C 001:449 JLINK_SetBPEx(Addr = 0x20000000, Type = 0xFFFFFFF2)  returns 0x0000000B (0000ms, 0853ms total)
T4B3C 001:449 JLINK_Go() (0003ms, 0856ms total)
T4B3C 001:452 JLINK_IsHalted()  returns FALSE (0001ms, 0857ms total)
T4B3C 001:457 JLINK_IsHalted()  returns FALSE (0000ms, 0856ms total)
T4B3C 001:460 JLINK_IsHalted()  returns FALSE (0000ms, 0856ms total)
T4B3C 001:462 JLINK_IsHalted()  returns FALSE (0001ms, 0857ms total)
T4B3C 001:465 JLINK_IsHalted()  returns FALSE (0000ms, 0856ms total)
T4B3C 001:467 JLINK_IsHalted()  returns FALSE (0001ms, 0857ms total)
T4B3C 001:470 JLINK_IsHalted()  returns FALSE (0000ms, 0856ms total)
T4B3C 001:472 JLINK_IsHalted()  returns FALSE (0000ms, 0856ms total)
T4B3C 001:474 JLINK_IsHalted()  returns FALSE (0000ms, 0856ms total)
T4B3C 001:476 JLINK_IsHalted()  returns FALSE (0000ms, 0856ms total)
T4B3C 001:478 JLINK_IsHalted()  returns FALSE (0000ms, 0856ms total)
T4B3C 001:480 JLINK_IsHalted()  returns FALSE (0000ms, 0856ms total)
T4B3C 001:483 JLINK_IsHalted() -- CPU_ReadMem(2 bytes @ 0x20000000)  returns TRUE (0007ms, 0863ms total)
T4B3C 001:490 JLINK_ReadReg(R15 (PC))  returns 0x20000000 (0001ms, 0857ms total)
T4B3C 001:491 JLINK_ClrBPEx(BPHandle = 0x0000000B)  returns 0x00 (0000ms, 0857ms total)
T4B3C 001:491 JLINK_ReadReg(R0)  returns 0x00000000 (0000ms, 0857ms total)
T4B3C 001:491 JLINK_WriteMem(0x20000164, 0x0400 Bytes, ...) - Data: 00 4C 00 40 00 50 00 40 0C B5 00 20 01 90 00 90 ... -- CPU_WriteMem(1024 bytes @ 0x20000164)  returns 0x400 (0017ms, 0874ms total)
T4B3C 001:508 JLINK_WriteReg(R0, 0x08001C00)  returns 0x00 (0000ms, 0874ms total)
T4B3C 001:508 JLINK_WriteReg(R1, 0x00000400)  returns 0x00 (0000ms, 0874ms total)
T4B3C 001:508 JLINK_WriteReg(R2, 0x20000164)  returns 0x00 (0000ms, 0874ms total)
T4B3C 001:508 JLINK_WriteReg(R3, 0x00000000)  returns 0x00 (0000ms, 0874ms total)
T4B3C 001:508 JLINK_WriteReg(R4, 0x00000000)  returns 0x00 (0000ms, 0874ms total)
T4B3C 001:508 JLINK_WriteReg(R5, 0x00000000)  returns 0x00 (0000ms, 0874ms total)
T4B3C 001:508 JLINK_WriteReg(R6, 0x00000000)  returns 0x00 (0000ms, 0874ms total)
T4B3C 001:508 JLINK_WriteReg(R7, 0x00000000)  returns 0x00 (0000ms, 0874ms total)
T4B3C 001:508 JLINK_WriteReg(R8, 0x00000000)  returns 0x00 (0001ms, 0875ms total)
T4B3C 001:509 JLINK_WriteReg(R9, 0x20000160)  returns 0x00 (0000ms, 0875ms total)
T4B3C 001:509 JLINK_WriteReg(R10, 0x00000000)  returns 0x00 (0000ms, 0875ms total)
T4B3C 001:509 JLINK_WriteReg(R11, 0x00000000)  returns 0x00 (0000ms, 0875ms total)
T4B3C 001:509 JLINK_WriteReg(R12, 0x00000000)  returns 0x00 (0000ms, 0875ms total)
T4B3C 001:509 JLINK_WriteReg(R13 (SP), 0x20000800)  returns 0x00 (0000ms, 0875ms total)
T4B3C 001:509 JLINK_WriteReg(R14, 0x20000001)  returns 0x00 (0000ms, 0875ms total)
T4B3C 001:509 JLINK_WriteReg(R15 (PC), 0x200000F4)  returns 0x00 (0000ms, 0875ms total)
T4B3C 001:509 JLINK_WriteReg(XPSR, 0x01000000)  returns 0x00 (0000ms, 0875ms total)
T4B3C 001:510 JLINK_WriteReg(MSP, 0x20000800)  returns 0x00 (0000ms, 0876ms total)
T4B3C 001:510 JLINK_WriteReg(PSP, 0x20000800)  returns 0x00 (0000ms, 0876ms total)
T4B3C 001:510 JLINK_WriteReg(CFBP, 0x00000000)  returns 0x00 (0000ms, 0876ms total)
T4B3C 001:510 JLINK_SetBPEx(Addr = 0x20000000, Type = 0xFFFFFFF2)  returns 0x0000000C (0000ms, 0876ms total)
T4B3C 001:510 JLINK_Go() (0004ms, 0880ms total)
T4B3C 001:514 JLINK_IsHalted()  returns FALSE (0001ms, 0881ms total)
T4B3C 001:517 JLINK_IsHalted()  returns FALSE (0001ms, 0881ms total)
T4B3C 001:520 JLINK_IsHalted()  returns FALSE (0001ms, 0881ms total)
T4B3C 001:523 JLINK_IsHalted()  returns FALSE (0001ms, 0881ms total)
T4B3C 001:526 JLINK_IsHalted()  returns FALSE (0001ms, 0881ms total)
T4B3C 001:529 JLINK_IsHalted()  returns FALSE (0001ms, 0881ms total)
T4B3C 001:532 JLINK_IsHalted()  returns FALSE (0001ms, 0881ms total)
T4B3C 001:535 JLINK_IsHalted()  returns FALSE (0001ms, 0881ms total)
T4B3C 001:538 JLINK_IsHalted()  returns FALSE (0001ms, 0881ms total)
T4B3C 001:541 JLINK_IsHalted()  returns FALSE (0001ms, 0881ms total)
T4B3C 001:544 JLINK_IsHalted()  returns FALSE (0001ms, 0881ms total)
T4B3C 001:547 JLINK_IsHalted() -- CPU_ReadMem(2 bytes @ 0x20000000)  returns TRUE (0008ms, 0888ms total)
T4B3C 001:555 JLINK_ReadReg(R15 (PC))  returns 0x20000000 (0000ms, 0880ms total)
T4B3C 001:555 JLINK_ClrBPEx(BPHandle = 0x0000000C)  returns 0x00 (0000ms, 0880ms total)
T4B3C 001:555 JLINK_ReadReg(R0)  returns 0x00000000 (0000ms, 0880ms total)
T4B3C 001:562 JLINK_WriteMem(0x20000164, 0x0400 Bytes, ...) - Data: 96 71 59 48 FF F7 B6 FB 4F F4 61 71 56 48 FF F7 ... -- CPU_WriteMem(1024 bytes @ 0x20000164)  returns 0x400 (0017ms, 0897ms total)
T4B3C 001:579 JLINK_WriteReg(R0, 0x08002000)  returns 0x00 (0000ms, 0897ms total)
T4B3C 001:579 JLINK_WriteReg(R1, 0x00000400)  returns 0x00 (0000ms, 0897ms total)
T4B3C 001:579 JLINK_WriteReg(R2, 0x20000164)  returns 0x00 (0000ms, 0897ms total)
T4B3C 001:579 JLINK_WriteReg(R3, 0x00000000)  returns 0x00 (0000ms, 0897ms total)
T4B3C 001:579 JLINK_WriteReg(R4, 0x00000000)  returns 0x00 (0000ms, 0897ms total)
T4B3C 001:579 JLINK_WriteReg(R5, 0x00000000)  returns 0x00 (0000ms, 0897ms total)
T4B3C 001:579 JLINK_WriteReg(R6, 0x00000000)  returns 0x00 (0000ms, 0897ms total)
T4B3C 001:579 JLINK_WriteReg(R7, 0x00000000)  returns 0x00 (0000ms, 0897ms total)
T4B3C 001:579 JLINK_WriteReg(R8, 0x00000000)  returns 0x00 (0000ms, 0897ms total)
T4B3C 001:579 JLINK_WriteReg(R9, 0x20000160)  returns 0x00 (0000ms, 0897ms total)
T4B3C 001:579 JLINK_WriteReg(R10, 0x00000000)  returns 0x00 (0000ms, 0897ms total)
T4B3C 001:579 JLINK_WriteReg(R11, 0x00000000)  returns 0x00 (0000ms, 0897ms total)
T4B3C 001:579 JLINK_WriteReg(R12, 0x00000000)  returns 0x00 (0000ms, 0897ms total)
T4B3C 001:579 JLINK_WriteReg(R13 (SP), 0x20000800)  returns 0x00 (0000ms, 0897ms total)
T4B3C 001:579 JLINK_WriteReg(R14, 0x20000001)  returns 0x00 (0000ms, 0897ms total)
T4B3C 001:579 JLINK_WriteReg(R15 (PC), 0x200000F4)  returns 0x00 (0000ms, 0897ms total)
T4B3C 001:579 JLINK_WriteReg(XPSR, 0x01000000)  returns 0x00 (0000ms, 0897ms total)
T4B3C 001:579 JLINK_WriteReg(MSP, 0x20000800)  returns 0x00 (0000ms, 0897ms total)
T4B3C 001:579 JLINK_WriteReg(PSP, 0x20000800)  returns 0x00 (0000ms, 0897ms total)
T4B3C 001:579 JLINK_WriteReg(CFBP, 0x00000000)  returns 0x00 (0001ms, 0898ms total)
T4B3C 001:580 JLINK_SetBPEx(Addr = 0x20000000, Type = 0xFFFFFFF2)  returns 0x0000000D (0000ms, 0898ms total)
T4B3C 001:580 JLINK_Go() (0003ms, 0901ms total)
T4B3C 001:583 JLINK_IsHalted()  returns FALSE (0001ms, 0902ms total)
T4B3C 001:587 JLINK_IsHalted()  returns FALSE (0001ms, 0902ms total)
T4B3C 001:590 JLINK_IsHalted()  returns FALSE (0001ms, 0902ms total)
T4B3C 001:593 JLINK_IsHalted()  returns FALSE (0000ms, 0901ms total)
T4B3C 001:595 JLINK_IsHalted()  returns FALSE (0000ms, 0901ms total)
T4B3C 001:597 JLINK_IsHalted()  returns FALSE (0001ms, 0902ms total)
T4B3C 001:600 JLINK_IsHalted()  returns FALSE (0000ms, 0901ms total)
T4B3C 001:602 JLINK_IsHalted()  returns FALSE (0000ms, 0901ms total)
T4B3C 001:604 JLINK_IsHalted()  returns FALSE (0000ms, 0901ms total)
T4B3C 001:606 JLINK_IsHalted()  returns FALSE (0000ms, 0901ms total)
T4B3C 001:608 JLINK_IsHalted()  returns FALSE (0000ms, 0901ms total)
T4B3C 001:610 JLINK_IsHalted()  returns FALSE (0000ms, 0901ms total)
T4B3C 001:612 JLINK_IsHalted()  returns FALSE (0000ms, 0901ms total)
T4B3C 001:614 JLINK_IsHalted() -- CPU_ReadMem(2 bytes @ 0x20000000)  returns TRUE (0008ms, 0909ms total)
T4B3C 001:622 JLINK_ReadReg(R15 (PC))  returns 0x20000000 (0000ms, 0901ms total)
T4B3C 001:622 JLINK_ClrBPEx(BPHandle = 0x0000000D)  returns 0x00 (0000ms, 0901ms total)
T4B3C 001:622 JLINK_ReadReg(R0)  returns 0x00000000 (0000ms, 0901ms total)
T4B3C 001:625 JLINK_WriteMem(0x20000164, 0x0400 Bytes, ...) - Data: C8 20 FF F7 CF FF 00 21 A1 20 FF F7 CB FF 01 2C ... -- CPU_WriteMem(1024 bytes @ 0x20000164)  returns 0x400 (0016ms, 0917ms total)
T4B3C 001:641 JLINK_WriteReg(R0, 0x08002400)  returns 0x00 (0000ms, 0917ms total)
T4B3C 001:641 JLINK_WriteReg(R1, 0x00000400)  returns 0x00 (0000ms, 0917ms total)
T4B3C 001:641 JLINK_WriteReg(R2, 0x20000164)  returns 0x00 (0000ms, 0917ms total)
T4B3C 001:641 JLINK_WriteReg(R3, 0x00000000)  returns 0x00 (0000ms, 0917ms total)
T4B3C 001:641 JLINK_WriteReg(R4, 0x00000000)  returns 0x00 (0000ms, 0917ms total)
T4B3C 001:641 JLINK_WriteReg(R5, 0x00000000)  returns 0x00 (0001ms, 0918ms total)
T4B3C 001:642 JLINK_WriteReg(R6, 0x00000000)  returns 0x00 (0000ms, 0918ms total)
T4B3C 001:642 JLINK_WriteReg(R7, 0x00000000)  returns 0x00 (0000ms, 0918ms total)
T4B3C 001:642 JLINK_WriteReg(R8, 0x00000000)  returns 0x00 (0000ms, 0918ms total)
T4B3C 001:642 JLINK_WriteReg(R9, 0x20000160)  returns 0x00 (0000ms, 0918ms total)
T4B3C 001:642 JLINK_WriteReg(R10, 0x00000000)  returns 0x00 (0000ms, 0918ms total)
T4B3C 001:642 JLINK_WriteReg(R11, 0x00000000)  returns 0x00 (0000ms, 0918ms total)
T4B3C 001:642 JLINK_WriteReg(R12, 0x00000000)  returns 0x00 (0000ms, 0918ms total)
T4B3C 001:642 JLINK_WriteReg(R13 (SP), 0x20000800)  returns 0x00 (0000ms, 0918ms total)
T4B3C 001:642 JLINK_WriteReg(R14, 0x20000001)  returns 0x00 (0000ms, 0918ms total)
T4B3C 001:642 JLINK_WriteReg(R15 (PC), 0x200000F4)  returns 0x00 (0000ms, 0918ms total)
T4B3C 001:642 JLINK_WriteReg(XPSR, 0x01000000)  returns 0x00 (0000ms, 0918ms total)
T4B3C 001:642 JLINK_WriteReg(MSP, 0x20000800)  returns 0x00 (0000ms, 0918ms total)
T4B3C 001:642 JLINK_WriteReg(PSP, 0x20000800)  returns 0x00 (0000ms, 0918ms total)
T4B3C 001:642 JLINK_WriteReg(CFBP, 0x00000000)  returns 0x00 (0000ms, 0918ms total)
T4B3C 001:642 JLINK_SetBPEx(Addr = 0x20000000, Type = 0xFFFFFFF2)  returns 0x0000000E (0000ms, 0918ms total)
T4B3C 001:642 JLINK_Go() (0004ms, 0922ms total)
T4B3C 001:646 JLINK_IsHalted()  returns FALSE (0001ms, 0923ms total)
T4B3C 001:650 JLINK_IsHalted()  returns FALSE (0001ms, 0923ms total)
T4B3C 001:653 JLINK_IsHalted()  returns FALSE (0000ms, 0922ms total)
T4B3C 001:657 JLINK_IsHalted()  returns FALSE (0001ms, 0923ms total)
T4B3C 001:660 JLINK_IsHalted()  returns FALSE (0001ms, 0923ms total)
T4B3C 001:663 JLINK_IsHalted()  returns FALSE (0001ms, 0923ms total)
T4B3C 001:666 JLINK_IsHalted()  returns FALSE (0001ms, 0923ms total)
T4B3C 001:669 JLINK_IsHalted()  returns FALSE (0001ms, 0923ms total)
T4B3C 001:672 JLINK_IsHalted()  returns FALSE (0000ms, 0922ms total)
T4B3C 001:674 JLINK_IsHalted()  returns FALSE (0001ms, 0923ms total)
T4B3C 001:677 JLINK_IsHalted() -- CPU_ReadMem(2 bytes @ 0x20000000)  returns TRUE (0008ms, 0930ms total)
T4B3C 001:685 JLINK_ReadReg(R15 (PC))  returns 0x20000000 (0000ms, 0922ms total)
T4B3C 001:685 JLINK_ClrBPEx(BPHandle = 0x0000000E)  returns 0x00 (0000ms, 0922ms total)
T4B3C 001:685 JLINK_ReadReg(R0)  returns 0x00000000 (0000ms, 0922ms total)
T4B3C 001:688 JLINK_WriteMem(0x20000164, 0x0400 Bytes, ...) - Data: F0 4F 06 46 8A 46 91 46 1F 46 09 9C 00 25 2C E0 ... -- CPU_WriteMem(1024 bytes @ 0x20000164)  returns 0x400 (0016ms, 0938ms total)
T4B3C 001:704 JLINK_WriteReg(R0, 0x08002800)  returns 0x00 (0000ms, 0938ms total)
T4B3C 001:704 JLINK_WriteReg(R1, 0x00000400)  returns 0x00 (0000ms, 0938ms total)
T4B3C 001:704 JLINK_WriteReg(R2, 0x20000164)  returns 0x00 (0000ms, 0938ms total)
